
T0D04 000:392 SEGGER J-Link V5.10r Log File (0013ms, 0334ms total)
T0D04 000:392 DLL Compiled: Mar  8 2016 17:34:46 (0013ms, 0334ms total)
T0D04 000:392 Logging started @ 2016-09-27 21:58 (0013ms, 0334ms total)
T0D04 000:405 JLINK_SetWarnOutHandler(...) (0000ms, 0334ms total)
T0D04 000:406 JLINK_OpenEx(...)
Firmware: J-Link ARM V8 compiled Nov 28 2014 13:44:46
Hardware: V8.00
S/N: 17935099
Feature(s): RDI,FlashDL,FlashBP,JFlash  returns O.K. (0280ms, 0614ms total)
T0D04 000:686 JLINK_SetErrorOutHandler(...) (0000ms, 0614ms total)
T0D04 000:686 JLINK_ExecCommand("ProjectFile = "E:\v1000_mass\Projects\Mass_Storage\MDK-ARM\JLinkSettings.ini"", ...)  returns 0x00 (0003ms, 0617ms total)
T0D04 000:704 JLINK_ExecCommand("Device = STM32L151CB", ...)Device "STM32L151CB" selected.  returns 0x00 (0015ms, 0632ms total)
T0D04 000:719 JLINK_ExecCommand("DisableConnectionTimeout", ...)  returns 0x01 (0000ms, 0632ms total)
T0D04 000:719 JLINK_GetHardwareVersion()  returns 0x13880 (0000ms, 0632ms total)
T0D04 000:719 JLINK_GetDLLVersion()  returns 51018 (0001ms, 0633ms total)
T0D04 000:720 JLINK_GetFirmwareString(...) (0000ms, 0633ms total)
T0D04 000:750 JLINK_GetDLLVersion()  returns 51018 (0000ms, 0633ms total)
T0D04 000:750 JLINK_GetCompileDateTime() (0000ms, 0633ms total)
T0D04 000:757 JLINK_GetFirmwareString(...) (0000ms, 0633ms total)
T0D04 000:764 JLINK_GetHardwareVersion()  returns 0x13880 (0000ms, 0633ms total)
T0D04 000:779 JLINK_TIF_Select(JLINKARM_TIF_SWD)  returns 0x00 (0005ms, 0638ms total)
T0D04 000:784 JLINK_SetSpeed(5000) (0001ms, 0639ms total)
T0D04 000:785 JLINK_GetId() >0x108 TIF>Found SWD-DP with ID 0x2BA01477 >0x0D TIF> >0x28 TIF> >0x0D TIF> >0x28 TIF> >0x0D TIF> >0x28 TIF> >0x0D TIF> >0x28 TIF> >0x0D TIF> >0x21 TIF> >0x0D TIF> >0x28 TIF> >0x0D TIF> >0x28 TIF> >0x0D TIF> >0x28 TIF> >0x0D TIF> >0x0D TIF> >0x21 TIF> >0x0D TIF> >0x21 TIF> >0x0D TIF> >0x28 TIF> >0x0D TIF> >0x0D TIF> >0x21 TIF> >0x0D TIF> >0x21 TIF> >0x0D TIF> >0x28 TIF> >0x0D TIF> >0x28 TIF> >0x0D TIF> >0x28 TIF> >0x0D TIF> >0x0D TIF> >0x21 TIF> >0x0D TIF> >0x21 TIF>
 >0x0D TIF> >0x28 TIF> >0x0D TIF> >0x28 TIF> >0x0D TIF> >0x28 TIF> >0x0D TIF> >0x0D TIF> >0x21 TIF> >0x0D TIF> >0x21 TIF> >0x0D TIF> >0x28 TIF> >0x0D TIF> >0x0D TIF> >0x21 TIF> >0x0D TIF> >0x21 TIF> >0x0D TIF> >0x28 TIF> >0x0D TIF> >0x0D TIF> >0x21 TIF> >0x0D TIF> >0x21 TIF> >0x0D TIF> >0x28 TIF> >0x0D TIF> >0x0D TIF> >0x21 TIF> >0x0D TIF> >0x21 TIF> >0x0D TIF> >0x28 TIF> >0x0D TIF> >0x0D TIF> >0x21 TIF> >0x0D TIF> >0x21 TIF> >0x0D TIF> >0x28 TIF> >0x0D TIF> >0x0D TIF> >0x21 TIF> >0x0D TIF> >0x21 TIF>
 >0x0D TIF> >0x28 TIF> >0x0D TIF> >0x0D TIF> >0x21 TIF> >0x0D TIF> >0x21 TIF> >0x0D TIF> >0x28 TIF> >0x0D TIF> >0x28 TIF> >0x0D TIF> >0x28 TIF> >0x0D TIF> >0x0D TIF> >0x21 TIF> >0x0D TIF> >0x21 TIF> >0x0D TIF> >0x28 TIF> >0x0D TIF> >0x28 TIF> >0x0D TIF> >0x28 TIF> >0x0D TIF> >0x28 TIF> >0x0D TIF> >0x28 TIF> >0x0D TIF> >0x0D TIF> >0x21 TIF> >0x0D TIF> >0x21 TIF> >0x0D TIF> >0x28 TIF> >0x0D TIF> >0x0D TIF> >0x21 TIF> >0x0D TIF> >0x21 TIF> >0x0D TIF> >0x28 TIF> >0x0D TIF> >0x0D TIF> >0x21 TIF> >0x0D TIF>
 >0x21 TIF> >0x0D TIF> >0x28 TIF> >0x0D TIF> >0x0D TIF> >0x21 TIF> >0x0D TIF> >0x21 TIF> >0x0D TIF> >0x28 TIF> >0x0D TIF> >0x0D TIF> >0x21 TIF> >0x0D TIF> >0x21 TIF> >0x0D TIF> >0x28 TIF> >0x0D TIF> >0x0D TIF> >0x21 TIF> >0x0D TIF> >0x21 TIF> >0x0D TIF> >0x28 TIF> >0x0D TIF> >0x0D TIF> >0x21 TIF> >0x0D TIF> >0x21 TIF> >0x0D TIF> >0x28 TIF> >0x0D TIF> >0x0D TIF> >0x21 TIF> >0x0D TIF> >0x21 TIF> >0x0D TIF> >0x28 TIF> >0x0D TIF> >0x0D TIF> >0x21 TIF> >0x0D TIF> >0x21 TIF> >0x0D TIF> >0x28 TIF> >0x0D TIF>
 >0x0D TIF> >0x21 TIF> >0x0D TIF> >0x21 TIF> >0x0D TIF> >0x28 TIF> >0x0D TIF> >0x0D TIF> >0x21 TIF> >0x0D TIF> >0x21 TIF> >0x0D TIF> >0x28 TIF> >0x0D TIF> >0x0D TIF> >0x21 TIF> >0x0D TIF> >0x21 TIF> >0x0D TIF> >0x28 TIF> >0x0D TIF> >0x0D TIF> >0x21 TIF> >0x0D TIF> >0x21 TIF> >0x0D TIF> >0x28 TIF> >0x0D TIF> >0x0D TIF> >0x21 TIF> >0x0D TIF> >0x21 TIF> >0x0D TIF> >0x28 TIF> >0x0D TIF> >0x0D TIF> >0x21 TIF> >0x0D TIF> >0x21 TIF> >0x0D TIF> >0x28 TIF> >0x0D TIF> >0x0D TIF> >0x21 TIF> >0x0D TIF> >0x21 TIF>
 >0x0D TIF> >0x28 TIF> >0x0D TIF> >0x0D TIF> >0x21 TIF> >0x0D TIF> >0x21 TIF> >0x0D TIF> >0x28 TIF> >0x0D TIF> >0x0D TIF> >0x21 TIF> >0x0D TIF> >0x21 TIF> >0x0D TIF> >0x28 TIF> >0x0D TIF> >0x0D TIF> >0x21 TIF> >0x0D TIF> >0x21 TIF> >0x0D TIF> >0x28 TIF> >0x0D TIF> >0x0D TIF> >0x21 TIF> >0x0D TIF> >0x21 TIF> >0x0D TIF> >0x28 TIF> >0x0D TIF> >0x0D TIF> >0x21 TIF> >0x0D TIF> >0x21 TIF> >0x0D TIF> >0x28 TIF> >0x0D TIF> >0x0D TIF> >0x21 TIF> >0x0D TIF> >0x21 TIF> >0x0D TIF> >0x28 TIF> >0x0D TIF> >0x0D TIF>
 >0x21 TIF> >0x0D TIF> >0x21 TIF> >0x0D TIF> >0x28 TIF> >0x0D TIF> >0x0D TIF> >0x21 TIF> >0x0D TIF> >0x21 TIF> >0x0D TIF> >0x28 TIF> >0x0D TIF> >0x0D TIF> >0x21 TIF> >0x0D TIF> >0x21 TIF> >0x0D TIF> >0x28 TIF> >0x0D TIF> >0x0D TIF> >0x21 TIF> >0x0D TIF> >0x21 TIF> >0x0D TIF> >0x28 TIF> >0x0D TIF> >0x0D TIF> >0x21 TIF> >0x0D TIF> >0x21 TIF> >0x0D TIF> >0x28 TIF> >0x0D TIF> >0x0D TIF> >0x21 TIF> >0x0D TIF> >0x21 TIF> >0x0D TIF> >0x28 TIF> >0x0D TIF> >0x0D TIF> >0x21 TIF> >0x0D TIF> >0x21 TIF> >0x0D TIF>
 >0x28 TIF> >0x0D TIF> >0x0D TIF> >0x21 TIF> >0x0D TIF> >0x21 TIF> >0x0D TIF> >0x28 TIF> >0x0D TIF> >0x0D TIF> >0x21 TIF> >0x0D TIF> >0x21 TIF> >0x0D TIF> >0x28 TIF> >0x0D TIF> >0x0D TIF> >0x21 TIF> >0x0D TIF> >0x21 TIF> >0x0D TIF> >0x28 TIF> >0x0D TIF> >0x0D TIF> >0x21 TIF> >0x0D TIF> >0x21 TIF> >0x0D TIF> >0x28 TIF> >0x0D TIF> >0x0D TIF> >0x21 TIF> >0x0D TIF> >0x21 TIF> >0x0D TIF> >0x28 TIF> >0x0D TIF> >0x0D TIF> >0x21 TIF> >0x0D TIF> >0x21 TIF> >0x0D TIF> >0x28 TIF> >0x0D TIF> >0x0D TIF> >0x21 TIF>
 >0x0D TIF> >0x21 TIF> >0x0D TIF> >0x28 TIF> >0x0D TIF> >0x0D TIF> >0x21 TIF> >0x0D TIF> >0x21 TIF> >0x0D TIF> >0x28 TIF> >0x0D TIF> >0x0D TIF> >0x21 TIF> >0x0D TIF> >0x21 TIF> >0x0D TIF> >0x28 TIF> >0x0D TIF> >0x0D TIF> >0x21 TIF> >0x0D TIF> >0x21 TIF> >0x0D TIF> >0x28 TIF> >0x0D TIF> >0x0D TIF> >0x21 TIF> >0x0D TIF> >0x21 TIF> >0x0D TIF> >0x28 TIF> >0x0D TIF> >0x0D TIF> >0x21 TIF> >0x0D TIF> >0x21 TIF> >0x0D TIF> >0x28 TIF> >0x0D TIF> >0x0D TIF> >0x21 TIF> >0x0D TIF> >0x21 TIF> >0x0D TIF> >0x28 TIF>
 >0x0D TIF> >0x0D TIF> >0x21 TIF> >0x0D TIF> >0x21 TIF> >0x0D TIF> >0x28 TIF> >0x0D TIF> >0x0D TIF> >0x21 TIF> >0x0D TIF> >0x21 TIF> >0x0D TIF> >0x28 TIF> >0x0D TIF> >0x0D TIF> >0x21 TIF> >0x0D TIF> >0x21 TIF> >0x0D TIF> >0x28 TIF> >0x0D TIF> >0x0D TIF> >0x21 TIF> >0x0D TIF> >0x21 TIF> >0x0D TIF> >0x28 TIF> >0x0D TIF> >0x0D TIF> >0x21 TIF> >0x0D TIF> >0x21 TIF> >0x0D TIF> >0x28 TIF> >0x0D TIF> >0x0D TIF> >0x21 TIF> >0x0D TIF> >0x21 TIF> >0x0D TIF> >0x28 TIF> >0x0D TIF> >0x0D TIF> >0x21 TIF> >0x0D TIF>
 >0x21 TIF> >0x0D TIF> >0x28 TIF> >0x0D TIF> >0x0D TIF> >0x21 TIF> >0x0D TIF> >0x21 TIF> >0x0D TIF> >0x28 TIF> >0x0D TIF> >0x0D TIF> >0x21 TIF> >0x0D TIF> >0x21 TIF> >0x0D TIF> >0x28 TIF> >0x0D TIF> >0x0D TIF> >0x21 TIF> >0x0D TIF> >0x21 TIF> >0x0D TIF> >0x28 TIF> >0x0D TIF> >0x0D TIF> >0x21 TIF> >0x0D TIF> >0x21 TIF> >0x0D TIF> >0x28 TIF> >0x0D TIF> >0x0D TIF> >0x21 TIF> >0x0D TIF> >0x21 TIF> >0x0D TIF> >0x28 TIF> >0x0D TIF> >0x0D TIF> >0x21 TIF> >0x0D TIF> >0x21 TIF> >0x0D TIF> >0x28 TIF> >0x0D TIF>
 >0x0D TIF> >0x21 TIF> >0x0D TIF> >0x21 TIF> >0x0D TIF> >0x28 TIF> >0x0D TIF> >0x0D TIF> >0x21 TIF> >0x0D TIF> >0x21 TIF> >0x0D TIF> >0x28 TIF> >0x0D TIF> >0x0D TIF> >0x21 TIF> >0x0D TIF> >0x21 TIF> >0x0D TIF> >0x28 TIF> >0x0D TIF> >0x0D TIF> >0x21 TIF> >0x0D TIF> >0x21 TIF> >0x0D TIF> >0x28 TIF> >0x0D TIF> >0x0D TIF> >0x21 TIF> >0x0D TIF> >0x21 TIF> >0x0D TIF> >0x28 TIF> >0x0D TIF> >0x0D TIF> >0x21 TIF> >0x0D TIF> >0x21 TIF> >0x0D TIF> >0x28 TIF> >0x0D TIF> >0x0D TIF> >0x21 TIF> >0x0D TIF> >0x21 TIF>
 >0x0D TIF> >0x28 TIF> >0x0D TIF> >0x0D TIF> >0x21 TIF> >0x0D TIF> >0x21 TIF> >0x0D TIF> >0x28 TIF> >0x0D TIF> >0x0D TIF> >0x21 TIF> >0x0D TIF> >0x21 TIF> >0x0D TIF> >0x28 TIF> >0x0D TIF> >0x0D TIF> >0x21 TIF> >0x0D TIF> >0x21 TIF> >0x0D TIF> >0x28 TIF> >0x0D TIF> >0x0D TIF> >0x21 TIF> >0x0D TIF> >0x21 TIF> >0x0D TIF> >0x28 TIF> >0x0D TIF> >0x0D TIF> >0x21 TIF> >0x0D TIF> >0x21 TIF> >0x0D TIF> >0x28 TIF> >0x0D TIF> >0x0D TIF> >0x21 TIF> >0x0D TIF> >0x21 TIF> >0x0D TIF> >0x28 TIF> >0x0D TIF> >0x0D TIF>
 >0x21 TIF> >0x0D TIF> >0x21 TIF> >0x0D TIF> >0x28 TIF> >0x0D TIF> >0x0D TIF> >0x21 TIF> >0x0D TIF> >0x21 TIF> >0x0D TIF> >0x28 TIF> >0x0D TIF> >0x0D TIF> >0x21 TIF> >0x0D TIF> >0x21 TIF>
  ***** Error: STM32 (connect): Timeout while waiting for CPU to halt after reset. Manually halting CPU.STM32 (connect): Can not attach to CPU. Trying connect under reset. >0x108 TIF>Found SWD-DP with ID 0x2BA01477 >0x0D TIF> >0x28 TIF> >0x0D TIF> >0x28 TIF> >0x0D TIF> >0x28 TIF> >0x0D TIF> >0x28 TIF> >0x0D TIF>
 >0x21 TIF> >0x0D TIF> >0x28 TIF> >0x0D TIF> >0x28 TIF> >0x0D TIF> >0x28 TIF> >0x0D TIF> >0x0D TIF> >0x21 TIF> >0x0D TIF> >0x21 TIF> >0x0D TIF> >0x28 TIF> >0x0D TIF> >0x0D TIF> >0x21 TIF> >0x0D TIF> >0x21 TIF> >0x0D TIF> >0x28 TIF> >0x0D TIF> >0x0D TIF> >0x21 TIF> >0x0D TIF> >0x21 TIF> >0x0D TIF> >0x28 TIF> >0x0D TIF> >0x0D TIF> >0x21 TIF> >0x0D TIF> >0x21 TIF> >0x0D TIF> >0x28 TIF> >0x0D TIF> >0x0D TIF> >0x21 TIF> >0x0D TIF> >0x21 TIF> >0x0D TIF> >0x28 TIF> >0x0D TIF> >0x0D TIF> >0x21 TIF> >0x0D TIF>
 >0x21 TIF> >0x0D TIF> >0x28 TIF> >0x0D TIF> >0x0D TIF> >0x21 TIF> >0x0D TIF> >0x21 TIF> >0x0D TIF> >0x28 TIF> >0x0D TIF> >0x0D TIF> >0x21 TIF> >0x0D TIF> >0x21 TIF> >0x0D TIF> >0x28 TIF> >0x0D TIF> >0x0D TIF> >0x21 TIF> >0x0D TIF> >0x21 TIF> >0x0D TIF> >0x28 TIF> >0x0D TIF> >0x0D TIF> >0x21 TIF> >0x0D TIF> >0x21 TIF> >0x0D TIF> >0x28 TIF> >0x0D TIF> >0x0D TIF> >0x21 TIF> >0x0D TIF> >0x21 TIF> >0x108 TIF>Found SWD-DP with ID 0x2BA01477 >0x0D TIF> >0x28 TIF> >0x0D TIF> >0x28 TIF> >0x0D TIF> >0x28 TIF>
 >0x0D TIF> >0x28 TIF> >0x0D TIF> >0x21 TIF> >0x0D TIF> >0x28 TIF> >0x0D TIF> >0x28 TIF> >0x0D TIF> >0x21 TIF> >0x0D TIF> >0x21 TIF> >0x0D TIF> >0x21 TIF> >0x0D TIF> >0x28 TIF> >0x0D TIF> >0x28 TIF> >0x0D TIF> >0x28 TIF> >0x0D TIF> >0x0D TIF> >0x21 TIF> >0x0D TIF> >0x21 TIF> >0x0D TIF> >0x28 TIF> >0x0D TIF> >0x0D TIF> >0x21 TIF> >0x0D TIF> >0x21 TIF>Found Cortex-M3 r2p0, Little endian. -- CPU_ReadMem(4 bytes @ 0xE000EDF0) -- CPU_ReadMem(4 bytes @ 0xE0002000)FPUnit: 6 code (BP) slots and 2 literal slots
 -- CPU_ReadMem(4 bytes @ 0xE000EDFC) -- CPU_WriteMem(4 bytes @ 0xE000EDFC) -- CPU_ReadMem(4 bytes @ 0xE0001000) -- CPU_WriteMem(4 bytes @ 0xE0001000) -- CPU_ReadMem(4 bytes @ 0xE000ED88) -- CPU_WriteMem(4 bytes @ 0xE000ED88) -- CPU_ReadMem(4 bytes @ 0xE000ED88) -- CPU_WriteMem(4 bytes @ 0xE000ED88)CoreSight components:ROMTbl 0 @ E00FF000 -- CPU_ReadMem(16 bytes @ 0xE00FF000) -- CPU_ReadMem(16 bytes @ 0xE000EFF0) -- CPU_ReadMem(16 bytes @ 0xE000EFE0)
ROMTbl 0 [0]: FFF0F000, CID: B105E00D, PID: 002BB000 SCS -- CPU_ReadMem(16 bytes @ 0xE0001FF0) -- CPU_ReadMem(16 bytes @ 0xE0001FE0)ROMTbl 0 [1]: FFF02000, CID: B105E00D, PID: 002BB002 DWT -- CPU_ReadMem(16 bytes @ 0xE0002FF0) -- CPU_ReadMem(16 bytes @ 0xE0002FE0)ROMTbl 0 [2]: FFF03000, CID: B105E00D, PID: 002BB003 FPB -- CPU_ReadMem(16 bytes @ 0xE0000FF0) -- CPU_ReadMem(16 bytes @ 0xE0000FE0)ROMTbl 0 [3]: FFF01000, CID: B105E00D, PID: 002BB001 ITM -- CPU_ReadMem(16 bytes @ 0xE00FF010)
 -- CPU_ReadMem(16 bytes @ 0xE0040FF0) -- CPU_ReadMem(16 bytes @ 0xE0040FE0)ROMTbl 0 [4]: FFF41000, CID: B105900D, PID: 002BB923 TPIU-Lite -- CPU_ReadMem(16 bytes @ 0xE0041FF0) -- CPU_ReadMem(16 bytes @ 0xE0041FE0)ROMTbl 0 [5]: FFF42000, CID: B105900D, PID: 002BB924 ETM-M3 >0x0D TIF> >0x21 TIF>  returns 0x2BA01477 (0927ms, 1566ms total)
T0D04 001:716 JLINK_GetDeviceFamily()  returns 3 (0000ms, 1566ms total)
T0D04 001:718 JLINK_ReadMem (0xE00FFFF0, 0x0010 Bytes, ...) -- CPU is running -- CPU_ReadMem(16 bytes @ 0xE00FFFF0) - Data: 0D 00 00 00 10 00 00 00 05 00 00 00 B1 00 00 00  returns 0x00 (0001ms, 1567ms total)
T0D04 001:719 JLINK_ReadMem (0xE00FFFD0, 0x0020 Bytes, ...) -- CPU is running -- CPU_ReadMem(32 bytes @ 0xE00FFFD0) - Data: 00 00 00 00 00 00 00 00 00 00 00 00 00 00 00 00 ...  returns 0x00 (0001ms, 1568ms total)
T0D04 001:720 JLINK_ReadMem (0xE00FF000, 0x0018 Bytes, ...) -- CPU is running -- CPU_ReadMem(24 bytes @ 0xE00FF000) - Data: 03 F0 F0 FF 03 20 F0 FF 03 30 F0 FF 03 10 F0 FF ...  returns 0x00 (0001ms, 1569ms total)
T0D04 001:721 JLINK_ReadMemU32(0xE000ED00, 0x0001 Items, ...) -- CPU is running -- CPU_ReadMem(4 bytes @ 0xE000ED00) - Data: 30 C2 2F 41  returns 0x01 (0001ms, 1570ms total)
T0D04 001:722 JLINK_SetResetType(JLINKARM_RESET_TYPE_NORMAL)  returns JLINKARM_RESET_TYPE_NORMAL (0000ms, 1570ms total)
T0D04 001:722 JLINK_Reset() -- CPU is running -- CPU_WriteMem(4 bytes @ 0xE000EDF0) -- CPU is running -- CPU_WriteMem(4 bytes @ 0xE000EDFC) >0x35 TIF> -- CPU is running -- CPU_WriteMem(4 bytes @ 0xE000ED0C) -- CPU is running -- CPU_ReadMem(4 bytes @ 0xE000EDF0) -- CPU is running -- CPU_ReadMem(4 bytes @ 0xE000EDF0) -- CPU is running -- CPU_WriteMem(4 bytes @ 0xE000EDF0) -- CPU is running -- CPU_WriteMem(4 bytes @ 0xE000EDFC) -- CPU is running -- CPU_ReadMem(4 bytes @ 0xE000EDF0)
 -- CPU_WriteMem(4 bytes @ 0xE0002000) -- CPU_ReadMem(4 bytes @ 0xE000EDFC) -- CPU_ReadMem(4 bytes @ 0xE0001000) (0023ms, 1593ms total)
T0D04 001:745 JLINK_Halt()  returns 0x00 (0000ms, 1593ms total)
T0D04 001:745 JLINK_IsHalted()  returns TRUE (0000ms, 1593ms total)
T0D04 001:745 JLINK_ReadMemU32(0xE000EDF0, 0x0001 Items, ...) -- CPU_ReadMem(4 bytes @ 0xE000EDF0) - Data: 03 00 03 00  returns 0x01 (0001ms, 1594ms total)
T0D04 001:746 JLINK_WriteU32(0xE000EDF0, 0xA05F0003) -- CPU_WriteMem(4 bytes @ 0xE000EDF0)  returns 0x00 (0001ms, 1595ms total)
T0D04 001:747 JLINK_WriteU32(0xE000EDFC, 0x01000000) -- CPU_WriteMem(4 bytes @ 0xE000EDFC)  returns 0x00 (0001ms, 1596ms total)
T0D04 001:757 JLINK_GetHWStatus(...)  returns 0x00 (0002ms, 1598ms total)
T0D04 001:765 JLINK_GetNumBPUnits(Type = 0xFFFFFF00)  returns 0x06 (0000ms, 1598ms total)
T0D04 001:765 JLINK_GetNumBPUnits(Type = 0xF0)  returns 0x2000 (0000ms, 1598ms total)
T0D04 001:765 JLINK_GetNumWPUnits()  returns 0x04 (0000ms, 1598ms total)
T0D04 001:771 JLINK_GetSpeed()  returns 0xFA0 (0000ms, 1598ms total)
T0D04 001:775 JLINK_ReadMemU32(0xE000E004, 0x0001 Items, ...) -- CPU_ReadMem(4 bytes @ 0xE000E004) - Data: 01 00 00 00  returns 0x01 (0002ms, 1601ms total)
T0D04 001:777 JLINK_ReadMemU32(0xE000E004, 0x0001 Items, ...) -- CPU_ReadMem(4 bytes @ 0xE000E004) - Data: 01 00 00 00  returns 0x01 (0002ms, 1603ms total)
T0D04 001:779 JLINK_WriteMem(0xE0001000, 0x001C Bytes, ...) - Data: 01 00 00 00 00 00 00 00 00 00 00 00 00 00 00 00 ... -- CPU_WriteMem(28 bytes @ 0xE0001000)  returns 0x1C (0002ms, 1605ms total)
T0D04 001:781 JLINK_ReadMem (0xE0001000, 0x001C Bytes, ...) -- CPU_ReadMem(28 bytes @ 0xE0001000) - Data: 01 00 00 40 00 00 00 00 00 00 00 00 00 00 00 00 ...  returns 0x00 (0001ms, 1606ms total)
T0D04 001:782 JLINK_Halt()  returns 0x00 (0000ms, 1606ms total)
T0D04 001:782 JLINK_IsHalted()  returns TRUE (0000ms, 1606ms total)
T0D04 001:856 JLINK_WriteMem(0x20000000, 0x0250 Bytes, ...) - Data: 00 BE 0A E0 0D 78 2D 06 68 40 08 24 40 00 00 D3 ... -- CPU_WriteMem(592 bytes @ 0x20000000)  returns 0x250 (0006ms, 1612ms total)
T0D04 001:862 JLINK_WriteReg(R0, 0x08003000)  returns 0x00 (0000ms, 1612ms total)
T0D04 001:862 JLINK_WriteReg(R1, 0x007A1200)  returns 0x00 (0000ms, 1612ms total)
T0D04 001:862 JLINK_WriteReg(R2, 0x00000001)  returns 0x00 (0000ms, 1612ms total)
T0D04 001:862 JLINK_WriteReg(R3, 0x00000000)  returns 0x00 (0000ms, 1612ms total)
T0D04 001:862 JLINK_WriteReg(R4, 0x00000000)  returns 0x00 (0000ms, 1612ms total)
T0D04 001:863 JLINK_WriteReg(R5, 0x00000000)  returns 0x00 (0000ms, 1613ms total)
T0D04 001:863 JLINK_WriteReg(R6, 0x00000000)  returns 0x00 (0000ms, 1613ms total)
T0D04 001:863 JLINK_WriteReg(R7, 0x00000000)  returns 0x00 (0000ms, 1613ms total)
T0D04 001:863 JLINK_WriteReg(R8, 0x00000000)  returns 0x00 (0000ms, 1613ms total)
T0D04 001:863 JLINK_WriteReg(R9, 0x2000024C)  returns 0x00 (0000ms, 1613ms total)
T0D04 001:863 JLINK_WriteReg(R10, 0x00000000)  returns 0x00 (0000ms, 1613ms total)
T0D04 001:863 JLINK_WriteReg(R11, 0x00000000)  returns 0x00 (0000ms, 1613ms total)
T0D04 001:863 JLINK_WriteReg(R12, 0x00000000)  returns 0x00 (0000ms, 1613ms total)
T0D04 001:863 JLINK_WriteReg(R13 (SP), 0x20000800)  returns 0x00 (0001ms, 1614ms total)
T0D04 001:864 JLINK_WriteReg(R14, 0x20000001)  returns 0x00 (0000ms, 1614ms total)
T0D04 001:864 JLINK_WriteReg(R15 (PC), 0x20000020)  returns 0x00 (0000ms, 1614ms total)
T0D04 001:864 JLINK_WriteReg(XPSR, 0x01000000)  returns 0x00 (0000ms, 1614ms total)
T0D04 001:864 JLINK_WriteReg(MSP, 0x20000800)  returns 0x00 (0000ms, 1614ms total)
T0D04 001:864 JLINK_WriteReg(PSP, 0x20000800)  returns 0x00 (0000ms, 1614ms total)
T0D04 001:864 JLINK_WriteReg(CFBP, 0x00000000)  returns 0x00 (0000ms, 1614ms total)
T0D04 001:864 JLINK_SetBPEx(Addr = 0x20000000, Type = 0xFFFFFFF2) -- CPU_ReadMem(2 bytes @ 0x20000000)  returns 0x00000001 (0002ms, 1616ms total)
T0D04 001:866 JLINK_Go() -- CPU_WriteMem(2 bytes @ 0x20000000) -- CPU_ReadMem(4 bytes @ 0xE0001000) -- CPU_WriteMem(4 bytes @ 0xE0002008) -- CPU_WriteMem(4 bytes @ 0xE000200C) -- CPU_WriteMem(4 bytes @ 0xE0002010) -- CPU_WriteMem(4 bytes @ 0xE0002014) -- CPU_WriteMem(4 bytes @ 0xE0002018) -- CPU_WriteMem(4 bytes @ 0xE000201C) -- CPU_WriteMem(4 bytes @ 0xE0001004) (0012ms, 1628ms total)
T0D04 001:878 JLINK_IsHalted() -- CPU_ReadMem(2 bytes @ 0x20000000)  returns TRUE (0004ms, 1632ms total)
T0D04 001:882 JLINK_ReadReg(R15 (PC))  returns 0x20000000 (0001ms, 1629ms total)
T0D04 001:883 JLINK_ClrBPEx(BPHandle = 0x00000001)  returns 0x00 (0000ms, 1629ms total)
T0D04 001:883 JLINK_ReadReg(R0)  returns 0x00000000 (0000ms, 1629ms total)
T0D04 001:884 JLINK_WriteReg(R0, 0x08003000)  returns 0x00 (0000ms, 1629ms total)
T0D04 001:884 JLINK_WriteReg(R1, 0x00000100)  returns 0x00 (0000ms, 1629ms total)
T0D04 001:884 JLINK_WriteReg(R2, 0x00000000)  returns 0x00 (0000ms, 1629ms total)
T0D04 001:884 JLINK_WriteReg(R3, 0x00000000)  returns 0x00 (0000ms, 1629ms total)
T0D04 001:884 JLINK_WriteReg(R4, 0x00000000)  returns 0x00 (0000ms, 1629ms total)
T0D04 001:884 JLINK_WriteReg(R5, 0x00000000)  returns 0x00 (0000ms, 1629ms total)
T0D04 001:885 JLINK_WriteReg(R6, 0x00000000)  returns 0x00 (0000ms, 1630ms total)
T0D04 001:885 JLINK_WriteReg(R7, 0x00000000)  returns 0x00 (0000ms, 1630ms total)
T0D04 001:885 JLINK_WriteReg(R8, 0x00000000)  returns 0x00 (0000ms, 1630ms total)
T0D04 001:885 JLINK_WriteReg(R9, 0x2000024C)  returns 0x00 (0000ms, 1630ms total)
T0D04 001:885 JLINK_WriteReg(R10, 0x00000000)  returns 0x00 (0000ms, 1630ms total)
T0D04 001:885 JLINK_WriteReg(R11, 0x00000000)  returns 0x00 (0000ms, 1630ms total)
T0D04 001:885 JLINK_WriteReg(R12, 0x00000000)  returns 0x00 (0000ms, 1630ms total)
T0D04 001:885 JLINK_WriteReg(R13 (SP), 0x20000800)  returns 0x00 (0000ms, 1630ms total)
T0D04 001:885 JLINK_WriteReg(R14, 0x20000001)  returns 0x00 (0001ms, 1631ms total)
T0D04 001:886 JLINK_WriteReg(R15 (PC), 0x20000108)  returns 0x00 (0000ms, 1631ms total)
T0D04 001:886 JLINK_WriteReg(XPSR, 0x01000000)  returns 0x00 (0000ms, 1631ms total)
T0D04 001:886 JLINK_WriteReg(MSP, 0x20000800)  returns 0x00 (0000ms, 1631ms total)
T0D04 001:886 JLINK_WriteReg(PSP, 0x20000800)  returns 0x00 (0000ms, 1631ms total)
T0D04 001:886 JLINK_WriteReg(CFBP, 0x00000000)  returns 0x00 (0000ms, 1631ms total)
T0D04 001:886 JLINK_SetBPEx(Addr = 0x20000000, Type = 0xFFFFFFF2)  returns 0x00000002 (0000ms, 1631ms total)
T0D04 001:886 JLINK_Go() -- CPU_ReadMem(4 bytes @ 0xE0001000) (0005ms, 1636ms total)
T0D04 001:891 JLINK_IsHalted() -- CPU_ReadMem(2 bytes @ 0x20000000)  returns TRUE (0004ms, 1640ms total)
T0D04 001:895 JLINK_ReadReg(R15 (PC))  returns 0x20000000 (0001ms, 1637ms total)
T0D04 001:896 JLINK_ClrBPEx(BPHandle = 0x00000002)  returns 0x00 (0000ms, 1637ms total)
T0D04 001:896 JLINK_ReadReg(R0)  returns 0x00000001 (0000ms, 1637ms total)
T0D04 001:896 JLINK_WriteReg(R0, 0x08003000)  returns 0x00 (0000ms, 1637ms total)
T0D04 001:896 JLINK_WriteReg(R1, 0x00000100)  returns 0x00 (0000ms, 1637ms total)
T0D04 001:896 JLINK_WriteReg(R2, 0x00000000)  returns 0x00 (0000ms, 1637ms total)
T0D04 001:896 JLINK_WriteReg(R3, 0x00000000)  returns 0x00 (0000ms, 1637ms total)
T0D04 001:896 JLINK_WriteReg(R4, 0x00000000)  returns 0x00 (0000ms, 1637ms total)
T0D04 001:896 JLINK_WriteReg(R5, 0x00000000)  returns 0x00 (0000ms, 1637ms total)
T0D04 001:897 JLINK_WriteReg(R6, 0x00000000)  returns 0x00 (0000ms, 1638ms total)
T0D04 001:897 JLINK_WriteReg(R7, 0x00000000)  returns 0x00 (0000ms, 1638ms total)
T0D04 001:897 JLINK_WriteReg(R8, 0x00000000)  returns 0x00 (0000ms, 1638ms total)
T0D04 001:897 JLINK_WriteReg(R9, 0x2000024C)  returns 0x00 (0000ms, 1638ms total)
T0D04 001:897 JLINK_WriteReg(R10, 0x00000000)  returns 0x00 (0000ms, 1638ms total)
T0D04 001:897 JLINK_WriteReg(R11, 0x00000000)  returns 0x00 (0000ms, 1638ms total)
T0D04 001:897 JLINK_WriteReg(R12, 0x00000000)  returns 0x00 (0000ms, 1638ms total)
T0D04 001:897 JLINK_WriteReg(R13 (SP), 0x20000800)  returns 0x00 (0000ms, 1638ms total)
T0D04 001:897 JLINK_WriteReg(R14, 0x20000001)  returns 0x00 (0001ms, 1639ms total)
T0D04 001:898 JLINK_WriteReg(R15 (PC), 0x200000AE)  returns 0x00 (0000ms, 1639ms total)
T0D04 001:898 JLINK_WriteReg(XPSR, 0x01000000)  returns 0x00 (0000ms, 1639ms total)
T0D04 001:898 JLINK_WriteReg(MSP, 0x20000800)  returns 0x00 (0000ms, 1639ms total)
T0D04 001:898 JLINK_WriteReg(PSP, 0x20000800)  returns 0x00 (0000ms, 1639ms total)
T0D04 001:898 JLINK_WriteReg(CFBP, 0x00000000)  returns 0x00 (0000ms, 1639ms total)
T0D04 001:898 JLINK_SetBPEx(Addr = 0x20000000, Type = 0xFFFFFFF2)  returns 0x00000003 (0000ms, 1639ms total)
T0D04 001:898 JLINK_Go() -- CPU_ReadMem(4 bytes @ 0xE0001000) (0004ms, 1643ms total)
T0D04 001:902 JLINK_IsHalted()  returns FALSE (0001ms, 1644ms total)
T0D04 002:068 JLINK_IsHalted() -- CPU_ReadMem(2 bytes @ 0x20000000)  returns TRUE (0004ms, 1647ms total)
T0D04 002:072 JLINK_ReadReg(R15 (PC))  returns 0x20000000 (0000ms, 1643ms total)
T0D04 002:072 JLINK_ClrBPEx(BPHandle = 0x00000003)  returns 0x00 (0001ms, 1644ms total)
T0D04 002:073 JLINK_ReadReg(R0)  returns 0x00000000 (0000ms, 1644ms total)
T0D04 002:073 JLINK_WriteReg(R0, 0x08003100)  returns 0x00 (0000ms, 1644ms total)
T0D04 002:073 JLINK_WriteReg(R1, 0x00000100)  returns 0x00 (0000ms, 1644ms total)
T0D04 002:073 JLINK_WriteReg(R2, 0x00000000)  returns 0x00 (0000ms, 1644ms total)
T0D04 002:073 JLINK_WriteReg(R3, 0x00000000)  returns 0x00 (0000ms, 1644ms total)
T0D04 002:073 JLINK_WriteReg(R4, 0x00000000)  returns 0x00 (0000ms, 1644ms total)
T0D04 002:073 JLINK_WriteReg(R5, 0x00000000)  returns 0x00 (0000ms, 1644ms total)
T0D04 002:073 JLINK_WriteReg(R6, 0x00000000)  returns 0x00 (0001ms, 1645ms total)
T0D04 002:074 JLINK_WriteReg(R7, 0x00000000)  returns 0x00 (0000ms, 1645ms total)
T0D04 002:074 JLINK_WriteReg(R8, 0x00000000)  returns 0x00 (0000ms, 1645ms total)
T0D04 002:074 JLINK_WriteReg(R9, 0x2000024C)  returns 0x00 (0000ms, 1645ms total)
T0D04 002:074 JLINK_WriteReg(R10, 0x00000000)  returns 0x00 (0000ms, 1645ms total)
T0D04 002:074 JLINK_WriteReg(R11, 0x00000000)  returns 0x00 (0000ms, 1645ms total)
T0D04 002:074 JLINK_WriteReg(R12, 0x00000000)  returns 0x00 (0000ms, 1645ms total)
T0D04 002:074 JLINK_WriteReg(R13 (SP), 0x20000800)  returns 0x00 (0000ms, 1645ms total)
T0D04 002:074 JLINK_WriteReg(R14, 0x20000001)  returns 0x00 (0000ms, 1645ms total)
T0D04 002:074 JLINK_WriteReg(R15 (PC), 0x20000108)  returns 0x00 (0000ms, 1645ms total)
T0D04 002:074 JLINK_WriteReg(XPSR, 0x01000000)  returns 0x00 (0000ms, 1645ms total)
T0D04 002:074 JLINK_WriteReg(MSP, 0x20000800)  returns 0x00 (0000ms, 1645ms total)
T0D04 002:074 JLINK_WriteReg(PSP, 0x20000800)  returns 0x00 (0000ms, 1645ms total)
T0D04 002:074 JLINK_WriteReg(CFBP, 0x00000000)  returns 0x00 (0000ms, 1645ms total)
T0D04 002:074 JLINK_SetBPEx(Addr = 0x20000000, Type = 0xFFFFFFF2)  returns 0x00000004 (0000ms, 1645ms total)
T0D04 002:074 JLINK_Go() -- CPU_ReadMem(4 bytes @ 0xE0001000) (0003ms, 1648ms total)
T0D04 002:078 JLINK_IsHalted() -- CPU_ReadMem(2 bytes @ 0x20000000)  returns TRUE (0004ms, 1653ms total)
T0D04 002:082 JLINK_ReadReg(R15 (PC))  returns 0x20000000 (0000ms, 1649ms total)
T0D04 002:082 JLINK_ClrBPEx(BPHandle = 0x00000004)  returns 0x00 (0000ms, 1649ms total)
T0D04 002:082 JLINK_ReadReg(R0)  returns 0x00000001 (0000ms, 1649ms total)
T0D04 002:082 JLINK_WriteReg(R0, 0x08003100)  returns 0x00 (0000ms, 1649ms total)
T0D04 002:082 JLINK_WriteReg(R1, 0x00000100)  returns 0x00 (0000ms, 1649ms total)
T0D04 002:082 JLINK_WriteReg(R2, 0x00000000)  returns 0x00 (0000ms, 1649ms total)
T0D04 002:082 JLINK_WriteReg(R3, 0x00000000)  returns 0x00 (0000ms, 1649ms total)
T0D04 002:082 JLINK_WriteReg(R4, 0x00000000)  returns 0x00 (0000ms, 1649ms total)
T0D04 002:082 JLINK_WriteReg(R5, 0x00000000)  returns 0x00 (0000ms, 1649ms total)
T0D04 002:082 JLINK_WriteReg(R6, 0x00000000)  returns 0x00 (0000ms, 1649ms total)
T0D04 002:082 JLINK_WriteReg(R7, 0x00000000)  returns 0x00 (0000ms, 1649ms total)
T0D04 002:082 JLINK_WriteReg(R8, 0x00000000)  returns 0x00 (0001ms, 1650ms total)
T0D04 002:083 JLINK_WriteReg(R9, 0x2000024C)  returns 0x00 (0000ms, 1650ms total)
T0D04 002:083 JLINK_WriteReg(R10, 0x00000000)  returns 0x00 (0000ms, 1650ms total)
T0D04 002:083 JLINK_WriteReg(R11, 0x00000000)  returns 0x00 (0000ms, 1650ms total)
T0D04 002:083 JLINK_WriteReg(R12, 0x00000000)  returns 0x00 (0000ms, 1650ms total)
T0D04 002:083 JLINK_WriteReg(R13 (SP), 0x20000800)  returns 0x00 (0000ms, 1650ms total)
T0D04 002:083 JLINK_WriteReg(R14, 0x20000001)  returns 0x00 (0000ms, 1650ms total)
T0D04 002:083 JLINK_WriteReg(R15 (PC), 0x200000AE)  returns 0x00 (0000ms, 1650ms total)
T0D04 002:083 JLINK_WriteReg(XPSR, 0x01000000)  returns 0x00 (0000ms, 1650ms total)
T0D04 002:083 JLINK_WriteReg(MSP, 0x20000800)  returns 0x00 (0000ms, 1650ms total)
T0D04 002:083 JLINK_WriteReg(PSP, 0x20000800)  returns 0x00 (0000ms, 1650ms total)
T0D04 002:083 JLINK_WriteReg(CFBP, 0x00000000)  returns 0x00 (0000ms, 1650ms total)
T0D04 002:083 JLINK_SetBPEx(Addr = 0x20000000, Type = 0xFFFFFFF2)  returns 0x00000005 (0000ms, 1650ms total)
T0D04 002:083 JLINK_Go() -- CPU_ReadMem(4 bytes @ 0xE0001000) (0003ms, 1653ms total)
T0D04 002:086 JLINK_IsHalted()  returns FALSE (0001ms, 1654ms total)
T0D04 002:156 JLINK_IsHalted() -- CPU_ReadMem(2 bytes @ 0x20000000)  returns TRUE (0004ms, 1657ms total)
T0D04 002:160 JLINK_ReadReg(R15 (PC))  returns 0x20000000 (0000ms, 1653ms total)
T0D04 002:160 JLINK_ClrBPEx(BPHandle = 0x00000005)  returns 0x00 (0000ms, 1653ms total)
T0D04 002:160 JLINK_ReadReg(R0)  returns 0x00000000 (0000ms, 1653ms total)
T0D04 002:161 JLINK_WriteReg(R0, 0x08003200)  returns 0x00 (0000ms, 1653ms total)
T0D04 002:161 JLINK_WriteReg(R1, 0x00000100)  returns 0x00 (0000ms, 1653ms total)
T0D04 002:161 JLINK_WriteReg(R2, 0x00000000)  returns 0x00 (0000ms, 1653ms total)
T0D04 002:161 JLINK_WriteReg(R3, 0x00000000)  returns 0x00 (0000ms, 1653ms total)
T0D04 002:161 JLINK_WriteReg(R4, 0x00000000)  returns 0x00 (0000ms, 1653ms total)
T0D04 002:161 JLINK_WriteReg(R5, 0x00000000)  returns 0x00 (0000ms, 1653ms total)
T0D04 002:161 JLINK_WriteReg(R6, 0x00000000)  returns 0x00 (0000ms, 1653ms total)
T0D04 002:161 JLINK_WriteReg(R7, 0x00000000)  returns 0x00 (0000ms, 1653ms total)
T0D04 002:161 JLINK_WriteReg(R8, 0x00000000)  returns 0x00 (0000ms, 1653ms total)
T0D04 002:161 JLINK_WriteReg(R9, 0x2000024C)  returns 0x00 (0001ms, 1654ms total)
T0D04 002:162 JLINK_WriteReg(R10, 0x00000000)  returns 0x00 (0000ms, 1654ms total)
T0D04 002:162 JLINK_WriteReg(R11, 0x00000000)  returns 0x00 (0000ms, 1654ms total)
T0D04 002:162 JLINK_WriteReg(R12, 0x00000000)  returns 0x00 (0000ms, 1654ms total)
T0D04 002:162 JLINK_WriteReg(R13 (SP), 0x20000800)  returns 0x00 (0000ms, 1654ms total)
T0D04 002:162 JLINK_WriteReg(R14, 0x20000001)  returns 0x00 (0000ms, 1654ms total)
T0D04 002:162 JLINK_WriteReg(R15 (PC), 0x20000108)  returns 0x00 (0000ms, 1654ms total)
T0D04 002:162 JLINK_WriteReg(XPSR, 0x01000000)  returns 0x00 (0000ms, 1654ms total)
T0D04 002:162 JLINK_WriteReg(MSP, 0x20000800)  returns 0x00 (0000ms, 1654ms total)
T0D04 002:162 JLINK_WriteReg(PSP, 0x20000800)  returns 0x00 (0000ms, 1654ms total)
T0D04 002:162 JLINK_WriteReg(CFBP, 0x00000000)  returns 0x00 (0000ms, 1654ms total)
T0D04 002:162 JLINK_SetBPEx(Addr = 0x20000000, Type = 0xFFFFFFF2)  returns 0x00000006 (0000ms, 1654ms total)
T0D04 002:162 JLINK_Go() -- CPU_ReadMem(4 bytes @ 0xE0001000) (0003ms, 1657ms total)
T0D04 002:166 JLINK_IsHalted() -- CPU_ReadMem(2 bytes @ 0x20000000)  returns TRUE (0004ms, 1662ms total)
T0D04 002:170 JLINK_ReadReg(R15 (PC))  returns 0x20000000 (0000ms, 1658ms total)
T0D04 002:170 JLINK_ClrBPEx(BPHandle = 0x00000006)  returns 0x00 (0000ms, 1658ms total)
T0D04 002:170 JLINK_ReadReg(R0)  returns 0x00000001 (0000ms, 1658ms total)
T0D04 002:170 JLINK_WriteReg(R0, 0x08003200)  returns 0x00 (0000ms, 1658ms total)
T0D04 002:170 JLINK_WriteReg(R1, 0x00000100)  returns 0x00 (0000ms, 1658ms total)
T0D04 002:170 JLINK_WriteReg(R2, 0x00000000)  returns 0x00 (0000ms, 1658ms total)
T0D04 002:170 JLINK_WriteReg(R3, 0x00000000)  returns 0x00 (0000ms, 1658ms total)
T0D04 002:170 JLINK_WriteReg(R4, 0x00000000)  returns 0x00 (0000ms, 1658ms total)
T0D04 002:170 JLINK_WriteReg(R5, 0x00000000)  returns 0x00 (0000ms, 1658ms total)
T0D04 002:170 JLINK_WriteReg(R6, 0x00000000)  returns 0x00 (0000ms, 1658ms total)
T0D04 002:170 JLINK_WriteReg(R7, 0x00000000)  returns 0x00 (0000ms, 1658ms total)
T0D04 002:170 JLINK_WriteReg(R8, 0x00000000)  returns 0x00 (0000ms, 1658ms total)
T0D04 002:170 JLINK_WriteReg(R9, 0x2000024C)  returns 0x00 (0000ms, 1658ms total)
T0D04 002:170 JLINK_WriteReg(R10, 0x00000000)  returns 0x00 (0001ms, 1659ms total)
T0D04 002:171 JLINK_WriteReg(R11, 0x00000000)  returns 0x00 (0000ms, 1659ms total)
T0D04 002:171 JLINK_WriteReg(R12, 0x00000000)  returns 0x00 (0000ms, 1659ms total)
T0D04 002:171 JLINK_WriteReg(R13 (SP), 0x20000800)  returns 0x00 (0000ms, 1659ms total)
T0D04 002:171 JLINK_WriteReg(R14, 0x20000001)  returns 0x00 (0000ms, 1659ms total)
T0D04 002:171 JLINK_WriteReg(R15 (PC), 0x200000AE)  returns 0x00 (0000ms, 1659ms total)
T0D04 002:171 JLINK_WriteReg(XPSR, 0x01000000)  returns 0x00 (0000ms, 1659ms total)
T0D04 002:171 JLINK_WriteReg(MSP, 0x20000800)  returns 0x00 (0000ms, 1659ms total)
T0D04 002:171 JLINK_WriteReg(PSP, 0x20000800)  returns 0x00 (0000ms, 1659ms total)
T0D04 002:171 JLINK_WriteReg(CFBP, 0x00000000)  returns 0x00 (0000ms, 1659ms total)
T0D04 002:171 JLINK_SetBPEx(Addr = 0x20000000, Type = 0xFFFFFFF2)  returns 0x00000007 (0000ms, 1659ms total)
T0D04 002:171 JLINK_Go() -- CPU_ReadMem(4 bytes @ 0xE0001000) (0003ms, 1662ms total)
T0D04 002:174 JLINK_IsHalted()  returns FALSE (0001ms, 1663ms total)
T0D04 002:179 JLINK_IsHalted() -- CPU_ReadMem(2 bytes @ 0x20000000)  returns TRUE (0004ms, 1666ms total)
T0D04 002:183 JLINK_ReadReg(R15 (PC))  returns 0x20000000 (0000ms, 1662ms total)
T0D04 002:183 JLINK_ClrBPEx(BPHandle = 0x00000007)  returns 0x00 (0000ms, 1662ms total)
T0D04 002:183 JLINK_ReadReg(R0)  returns 0x00000000 (0000ms, 1662ms total)
T0D04 002:184 JLINK_WriteReg(R0, 0x08003300)  returns 0x00 (0000ms, 1662ms total)
T0D04 002:184 JLINK_WriteReg(R1, 0x00000100)  returns 0x00 (0000ms, 1662ms total)
T0D04 002:184 JLINK_WriteReg(R2, 0x00000000)  returns 0x00 (0000ms, 1662ms total)
T0D04 002:184 JLINK_WriteReg(R3, 0x00000000)  returns 0x00 (0000ms, 1662ms total)
T0D04 002:184 JLINK_WriteReg(R4, 0x00000000)  returns 0x00 (0000ms, 1662ms total)
T0D04 002:184 JLINK_WriteReg(R5, 0x00000000)  returns 0x00 (0000ms, 1662ms total)
T0D04 002:184 JLINK_WriteReg(R6, 0x00000000)  returns 0x00 (0000ms, 1662ms total)
T0D04 002:184 JLINK_WriteReg(R7, 0x00000000)  returns 0x00 (0000ms, 1662ms total)
T0D04 002:184 JLINK_WriteReg(R8, 0x00000000)  returns 0x00 (0000ms, 1662ms total)
T0D04 002:184 JLINK_WriteReg(R9, 0x2000024C)  returns 0x00 (0000ms, 1662ms total)
T0D04 002:184 JLINK_WriteReg(R10, 0x00000000)  returns 0x00 (0000ms, 1662ms total)
T0D04 002:184 JLINK_WriteReg(R11, 0x00000000)  returns 0x00 (0000ms, 1662ms total)
T0D04 002:184 JLINK_WriteReg(R12, 0x00000000)  returns 0x00 (0000ms, 1662ms total)
T0D04 002:185 JLINK_WriteReg(R13 (SP), 0x20000800)  returns 0x00 (0000ms, 1663ms total)
T0D04 002:185 JLINK_WriteReg(R14, 0x20000001)  returns 0x00 (0000ms, 1663ms total)
T0D04 002:185 JLINK_WriteReg(R15 (PC), 0x20000108)  returns 0x00 (0000ms, 1663ms total)
T0D04 002:185 JLINK_WriteReg(XPSR, 0x01000000)  returns 0x00 (0000ms, 1663ms total)
T0D04 002:185 JLINK_WriteReg(MSP, 0x20000800)  returns 0x00 (0000ms, 1663ms total)
T0D04 002:185 JLINK_WriteReg(PSP, 0x20000800)  returns 0x00 (0000ms, 1663ms total)
T0D04 002:185 JLINK_WriteReg(CFBP, 0x00000000)  returns 0x00 (0000ms, 1663ms total)
T0D04 002:185 JLINK_SetBPEx(Addr = 0x20000000, Type = 0xFFFFFFF2)  returns 0x00000008 (0000ms, 1663ms total)
T0D04 002:185 JLINK_Go() -- CPU_ReadMem(4 bytes @ 0xE0001000) (0003ms, 1666ms total)
T0D04 002:188 JLINK_IsHalted() -- CPU_ReadMem(2 bytes @ 0x20000000)  returns TRUE (0004ms, 1670ms total)
T0D04 002:193 JLINK_ReadReg(R15 (PC))  returns 0x20000000 (0000ms, 1666ms total)
T0D04 002:193 JLINK_ClrBPEx(BPHandle = 0x00000008)  returns 0x00 (0000ms, 1666ms total)
T0D04 002:193 JLINK_ReadReg(R0)  returns 0x00000001 (0000ms, 1666ms total)
T0D04 002:193 JLINK_WriteReg(R0, 0x08003300)  returns 0x00 (0000ms, 1666ms total)
T0D04 002:193 JLINK_WriteReg(R1, 0x00000100)  returns 0x00 (0000ms, 1666ms total)
T0D04 002:193 JLINK_WriteReg(R2, 0x00000000)  returns 0x00 (0000ms, 1666ms total)
T0D04 002:193 JLINK_WriteReg(R3, 0x00000000)  returns 0x00 (0000ms, 1666ms total)
T0D04 002:193 JLINK_WriteReg(R4, 0x00000000)  returns 0x00 (0000ms, 1666ms total)
T0D04 002:193 JLINK_WriteReg(R5, 0x00000000)  returns 0x00 (0000ms, 1666ms total)
T0D04 002:193 JLINK_WriteReg(R6, 0x00000000)  returns 0x00 (0000ms, 1666ms total)
T0D04 002:193 JLINK_WriteReg(R7, 0x00000000)  returns 0x00 (0000ms, 1666ms total)
T0D04 002:193 JLINK_WriteReg(R8, 0x00000000)  returns 0x00 (0000ms, 1666ms total)
T0D04 002:193 JLINK_WriteReg(R9, 0x2000024C)  returns 0x00 (0000ms, 1666ms total)
T0D04 002:193 JLINK_WriteReg(R10, 0x00000000)  returns 0x00 (0000ms, 1666ms total)
T0D04 002:193 JLINK_WriteReg(R11, 0x00000000)  returns 0x00 (0000ms, 1666ms total)
T0D04 002:193 JLINK_WriteReg(R12, 0x00000000)  returns 0x00 (0000ms, 1666ms total)
T0D04 002:193 JLINK_WriteReg(R13 (SP), 0x20000800)  returns 0x00 (0000ms, 1666ms total)
T0D04 002:193 JLINK_WriteReg(R14, 0x20000001)  returns 0x00 (0000ms, 1666ms total)
T0D04 002:193 JLINK_WriteReg(R15 (PC), 0x200000AE)  returns 0x00 (0001ms, 1667ms total)
T0D04 002:194 JLINK_WriteReg(XPSR, 0x01000000)  returns 0x00 (0000ms, 1667ms total)
T0D04 002:194 JLINK_WriteReg(MSP, 0x20000800)  returns 0x00 (0000ms, 1667ms total)
T0D04 002:194 JLINK_WriteReg(PSP, 0x20000800)  returns 0x00 (0000ms, 1667ms total)
T0D04 002:194 JLINK_WriteReg(CFBP, 0x00000000)  returns 0x00 (0000ms, 1667ms total)
T0D04 002:194 JLINK_SetBPEx(Addr = 0x20000000, Type = 0xFFFFFFF2)  returns 0x00000009 (0000ms, 1667ms total)
T0D04 002:194 JLINK_Go() -- CPU_ReadMem(4 bytes @ 0xE0001000) (0003ms, 1670ms total)
T0D04 002:197 JLINK_IsHalted()  returns FALSE (0001ms, 1671ms total)
T0D04 002:209 JLINK_IsHalted() -- CPU_ReadMem(2 bytes @ 0x20000000)  returns TRUE (0004ms, 1674ms total)
T0D04 002:213 JLINK_ReadReg(R15 (PC))  returns 0x20000000 (0000ms, 1670ms total)
T0D04 002:213 JLINK_ClrBPEx(BPHandle = 0x00000009)  returns 0x00 (0000ms, 1670ms total)
T0D04 002:213 JLINK_ReadReg(R0)  returns 0x00000000 (0000ms, 1670ms total)
T0D04 002:214 JLINK_WriteReg(R0, 0x08003400)  returns 0x00 (0000ms, 1670ms total)
T0D04 002:214 JLINK_WriteReg(R1, 0x00000100)  returns 0x00 (0000ms, 1670ms total)
T0D04 002:214 JLINK_WriteReg(R2, 0x00000000)  returns 0x00 (0000ms, 1670ms total)
T0D04 002:214 JLINK_WriteReg(R3, 0x00000000)  returns 0x00 (0000ms, 1670ms total)
T0D04 002:214 JLINK_WriteReg(R4, 0x00000000)  returns 0x00 (0000ms, 1670ms total)
T0D04 002:214 JLINK_WriteReg(R5, 0x00000000)  returns 0x00 (0000ms, 1670ms total)
T0D04 002:214 JLINK_WriteReg(R6, 0x00000000)  returns 0x00 (0000ms, 1670ms total)
T0D04 002:214 JLINK_WriteReg(R7, 0x00000000)  returns 0x00 (0000ms, 1670ms total)
T0D04 002:214 JLINK_WriteReg(R8, 0x00000000)  returns 0x00 (0000ms, 1670ms total)
T0D04 002:214 JLINK_WriteReg(R9, 0x2000024C)  returns 0x00 (0000ms, 1670ms total)
T0D04 002:214 JLINK_WriteReg(R10, 0x00000000)  returns 0x00 (0000ms, 1670ms total)
T0D04 002:214 JLINK_WriteReg(R11, 0x00000000)  returns 0x00 (0000ms, 1670ms total)
T0D04 002:214 JLINK_WriteReg(R12, 0x00000000)  returns 0x00 (0001ms, 1671ms total)
T0D04 002:215 JLINK_WriteReg(R13 (SP), 0x20000800)  returns 0x00 (0000ms, 1671ms total)
T0D04 002:215 JLINK_WriteReg(R14, 0x20000001)  returns 0x00 (0000ms, 1671ms total)
T0D04 002:215 JLINK_WriteReg(R15 (PC), 0x20000108)  returns 0x00 (0000ms, 1671ms total)
T0D04 002:215 JLINK_WriteReg(XPSR, 0x01000000)  returns 0x00 (0000ms, 1671ms total)
T0D04 002:215 JLINK_WriteReg(MSP, 0x20000800)  returns 0x00 (0000ms, 1671ms total)
T0D04 002:215 JLINK_WriteReg(PSP, 0x20000800)  returns 0x00 (0000ms, 1671ms total)
T0D04 002:215 JLINK_WriteReg(CFBP, 0x00000000)  returns 0x00 (0000ms, 1671ms total)
T0D04 002:215 JLINK_SetBPEx(Addr = 0x20000000, Type = 0xFFFFFFF2)  returns 0x0000000A (0000ms, 1671ms total)
T0D04 002:215 JLINK_Go() -- CPU_ReadMem(4 bytes @ 0xE0001000) (0003ms, 1674ms total)
T0D04 002:218 JLINK_IsHalted() -- CPU_ReadMem(2 bytes @ 0x20000000)  returns TRUE (0005ms, 1679ms total)
T0D04 002:223 JLINK_ReadReg(R15 (PC))  returns 0x20000000 (0000ms, 1674ms total)
T0D04 002:223 JLINK_ClrBPEx(BPHandle = 0x0000000A)  returns 0x00 (0000ms, 1674ms total)
T0D04 002:223 JLINK_ReadReg(R0)  returns 0x00000001 (0000ms, 1674ms total)
T0D04 002:223 JLINK_WriteReg(R0, 0x08003400)  returns 0x00 (0000ms, 1674ms total)
T0D04 002:223 JLINK_WriteReg(R1, 0x00000100)  returns 0x00 (0000ms, 1674ms total)
T0D04 002:223 JLINK_WriteReg(R2, 0x00000000)  returns 0x00 (0000ms, 1674ms total)
T0D04 002:223 JLINK_WriteReg(R3, 0x00000000)  returns 0x00 (0000ms, 1674ms total)
T0D04 002:223 JLINK_WriteReg(R4, 0x00000000)  returns 0x00 (0000ms, 1674ms total)
T0D04 002:223 JLINK_WriteReg(R5, 0x00000000)  returns 0x00 (0000ms, 1674ms total)
T0D04 002:223 JLINK_WriteReg(R6, 0x00000000)  returns 0x00 (0000ms, 1674ms total)
T0D04 002:223 JLINK_WriteReg(R7, 0x00000000)  returns 0x00 (0000ms, 1674ms total)
T0D04 002:223 JLINK_WriteReg(R8, 0x00000000)  returns 0x00 (0000ms, 1674ms total)
T0D04 002:223 JLINK_WriteReg(R9, 0x2000024C)  returns 0x00 (0000ms, 1674ms total)
T0D04 002:223 JLINK_WriteReg(R10, 0x00000000)  returns 0x00 (0000ms, 1674ms total)
T0D04 002:223 JLINK_WriteReg(R11, 0x00000000)  returns 0x00 (0000ms, 1674ms total)
T0D04 002:223 JLINK_WriteReg(R12, 0x00000000)  returns 0x00 (0001ms, 1675ms total)
T0D04 002:224 JLINK_WriteReg(R13 (SP), 0x20000800)  returns 0x00 (0000ms, 1675ms total)
T0D04 002:224 JLINK_WriteReg(R14, 0x20000001)  returns 0x00 (0000ms, 1675ms total)
T0D04 002:224 JLINK_WriteReg(R15 (PC), 0x200000AE)  returns 0x00 (0000ms, 1675ms total)
T0D04 002:224 JLINK_WriteReg(XPSR, 0x01000000)  returns 0x00 (0000ms, 1675ms total)
T0D04 002:224 JLINK_WriteReg(MSP, 0x20000800)  returns 0x00 (0000ms, 1675ms total)
T0D04 002:224 JLINK_WriteReg(PSP, 0x20000800)  returns 0x00 (0000ms, 1675ms total)
T0D04 002:224 JLINK_WriteReg(CFBP, 0x00000000)  returns 0x00 (0000ms, 1675ms total)
T0D04 002:224 JLINK_SetBPEx(Addr = 0x20000000, Type = 0xFFFFFFF2)  returns 0x0000000B (0000ms, 1675ms total)
T0D04 002:224 JLINK_Go() -- CPU_ReadMem(4 bytes @ 0xE0001000) (0003ms, 1678ms total)
T0D04 002:227 JLINK_IsHalted()  returns FALSE (0001ms, 1679ms total)
T0D04 002:241 JLINK_IsHalted() -- CPU_ReadMem(2 bytes @ 0x20000000)  returns TRUE (0004ms, 1682ms total)
T0D04 002:245 JLINK_ReadReg(R15 (PC))  returns 0x20000000 (0000ms, 1678ms total)
T0D04 002:245 JLINK_ClrBPEx(BPHandle = 0x0000000B)  returns 0x00 (0000ms, 1678ms total)
T0D04 002:245 JLINK_ReadReg(R0)  returns 0x00000000 (0000ms, 1678ms total)
T0D04 002:246 JLINK_WriteReg(R0, 0x08003500)  returns 0x00 (0000ms, 1679ms total)
T0D04 002:246 JLINK_WriteReg(R1, 0x00000100)  returns 0x00 (0000ms, 1679ms total)
T0D04 002:246 JLINK_WriteReg(R2, 0x00000000)  returns 0x00 (0000ms, 1679ms total)
T0D04 002:246 JLINK_WriteReg(R3, 0x00000000)  returns 0x00 (0000ms, 1679ms total)
T0D04 002:246 JLINK_WriteReg(R4, 0x00000000)  returns 0x00 (0000ms, 1679ms total)
T0D04 002:246 JLINK_WriteReg(R5, 0x00000000)  returns 0x00 (0000ms, 1679ms total)
T0D04 002:246 JLINK_WriteReg(R6, 0x00000000)  returns 0x00 (0000ms, 1679ms total)
T0D04 002:246 JLINK_WriteReg(R7, 0x00000000)  returns 0x00 (0000ms, 1679ms total)
T0D04 002:246 JLINK_WriteReg(R8, 0x00000000)  returns 0x00 (0000ms, 1679ms total)
T0D04 002:246 JLINK_WriteReg(R9, 0x2000024C)  returns 0x00 (0001ms, 1680ms total)
T0D04 002:247 JLINK_WriteReg(R10, 0x00000000)  returns 0x00 (0000ms, 1680ms total)
T0D04 002:247 JLINK_WriteReg(R11, 0x00000000)  returns 0x00 (0000ms, 1680ms total)
T0D04 002:247 JLINK_WriteReg(R12, 0x00000000)  returns 0x00 (0000ms, 1680ms total)
T0D04 002:247 JLINK_WriteReg(R13 (SP), 0x20000800)  returns 0x00 (0000ms, 1680ms total)
T0D04 002:247 JLINK_WriteReg(R14, 0x20000001)  returns 0x00 (0000ms, 1680ms total)
T0D04 002:247 JLINK_WriteReg(R15 (PC), 0x20000108)  returns 0x00 (0000ms, 1680ms total)
T0D04 002:247 JLINK_WriteReg(XPSR, 0x01000000)  returns 0x00 (0000ms, 1680ms total)
T0D04 002:247 JLINK_WriteReg(MSP, 0x20000800)  returns 0x00 (0000ms, 1680ms total)
T0D04 002:247 JLINK_WriteReg(PSP, 0x20000800)  returns 0x00 (0000ms, 1680ms total)
T0D04 002:247 JLINK_WriteReg(CFBP, 0x00000000)  returns 0x00 (0000ms, 1680ms total)
T0D04 002:247 JLINK_SetBPEx(Addr = 0x20000000, Type = 0xFFFFFFF2)  returns 0x0000000C (0000ms, 1680ms total)
T0D04 002:247 JLINK_Go() -- CPU_ReadMem(4 bytes @ 0xE0001000) (0003ms, 1683ms total)
T0D04 002:250 JLINK_IsHalted() -- CPU_ReadMem(2 bytes @ 0x20000000)  returns TRUE (0005ms, 1688ms total)
T0D04 002:255 JLINK_ReadReg(R15 (PC))  returns 0x20000000 (0000ms, 1683ms total)
T0D04 002:255 JLINK_ClrBPEx(BPHandle = 0x0000000C)  returns 0x00 (0000ms, 1683ms total)
T0D04 002:255 JLINK_ReadReg(R0)  returns 0x00000001 (0000ms, 1683ms total)
T0D04 002:255 JLINK_WriteReg(R0, 0x08003500)  returns 0x00 (0000ms, 1683ms total)
T0D04 002:255 JLINK_WriteReg(R1, 0x00000100)  returns 0x00 (0000ms, 1683ms total)
T0D04 002:255 JLINK_WriteReg(R2, 0x00000000)  returns 0x00 (0000ms, 1683ms total)
T0D04 002:255 JLINK_WriteReg(R3, 0x00000000)  returns 0x00 (0000ms, 1683ms total)
T0D04 002:255 JLINK_WriteReg(R4, 0x00000000)  returns 0x00 (0000ms, 1683ms total)
T0D04 002:255 JLINK_WriteReg(R5, 0x00000000)  returns 0x00 (0000ms, 1683ms total)
T0D04 002:255 JLINK_WriteReg(R6, 0x00000000)  returns 0x00 (0000ms, 1683ms total)
T0D04 002:255 JLINK_WriteReg(R7, 0x00000000)  returns 0x00 (0000ms, 1683ms total)
T0D04 002:255 JLINK_WriteReg(R8, 0x00000000)  returns 0x00 (0000ms, 1683ms total)
T0D04 002:256 JLINK_WriteReg(R9, 0x2000024C)  returns 0x00 (0000ms, 1684ms total)
T0D04 002:256 JLINK_WriteReg(R10, 0x00000000)  returns 0x00 (0000ms, 1684ms total)
T0D04 002:256 JLINK_WriteReg(R11, 0x00000000)  returns 0x00 (0000ms, 1684ms total)
T0D04 002:256 JLINK_WriteReg(R12, 0x00000000)  returns 0x00 (0000ms, 1684ms total)
T0D04 002:256 JLINK_WriteReg(R13 (SP), 0x20000800)  returns 0x00 (0000ms, 1684ms total)
T0D04 002:256 JLINK_WriteReg(R14, 0x20000001)  returns 0x00 (0000ms, 1684ms total)
T0D04 002:256 JLINK_WriteReg(R15 (PC), 0x200000AE)  returns 0x00 (0000ms, 1684ms total)
T0D04 002:256 JLINK_WriteReg(XPSR, 0x01000000)  returns 0x00 (0000ms, 1684ms total)
T0D04 002:256 JLINK_WriteReg(MSP, 0x20000800)  returns 0x00 (0000ms, 1684ms total)
T0D04 002:256 JLINK_WriteReg(PSP, 0x20000800)  returns 0x00 (0000ms, 1684ms total)
T0D04 002:256 JLINK_WriteReg(CFBP, 0x00000000)  returns 0x00 (0000ms, 1684ms total)
T0D04 002:256 JLINK_SetBPEx(Addr = 0x20000000, Type = 0xFFFFFFF2)  returns 0x0000000D (0000ms, 1684ms total)
T0D04 002:256 JLINK_Go() -- CPU_ReadMem(4 bytes @ 0xE0001000) (0003ms, 1687ms total)
T0D04 002:260 JLINK_IsHalted()  returns FALSE (0001ms, 1689ms total)
T0D04 002:269 JLINK_IsHalted() -- CPU_ReadMem(2 bytes @ 0x20000000)  returns TRUE (0004ms, 1692ms total)
T0D04 002:273 JLINK_ReadReg(R15 (PC))  returns 0x20000000 (0000ms, 1688ms total)
T0D04 002:273 JLINK_ClrBPEx(BPHandle = 0x0000000D)  returns 0x00 (0000ms, 1688ms total)
T0D04 002:273 JLINK_ReadReg(R0)  returns 0x00000000 (0000ms, 1688ms total)
T0D04 002:274 JLINK_WriteReg(R0, 0x08003600)  returns 0x00 (0000ms, 1688ms total)
T0D04 002:274 JLINK_WriteReg(R1, 0x00000100)  returns 0x00 (0000ms, 1688ms total)
T0D04 002:274 JLINK_WriteReg(R2, 0x00000000)  returns 0x00 (0000ms, 1688ms total)
T0D04 002:274 JLINK_WriteReg(R3, 0x00000000)  returns 0x00 (0000ms, 1688ms total)
T0D04 002:274 JLINK_WriteReg(R4, 0x00000000)  returns 0x00 (0000ms, 1688ms total)
T0D04 002:274 JLINK_WriteReg(R5, 0x00000000)  returns 0x00 (0000ms, 1688ms total)
T0D04 002:274 JLINK_WriteReg(R6, 0x00000000)  returns 0x00 (0000ms, 1688ms total)
T0D04 002:274 JLINK_WriteReg(R7, 0x00000000)  returns 0x00 (0000ms, 1688ms total)
T0D04 002:274 JLINK_WriteReg(R8, 0x00000000)  returns 0x00 (0000ms, 1688ms total)
T0D04 002:274 JLINK_WriteReg(R9, 0x2000024C)  returns 0x00 (0000ms, 1688ms total)
T0D04 002:274 JLINK_WriteReg(R10, 0x00000000)  returns 0x00 (0000ms, 1688ms total)
T0D04 002:274 JLINK_WriteReg(R11, 0x00000000)  returns 0x00 (0000ms, 1688ms total)
T0D04 002:274 JLINK_WriteReg(R12, 0x00000000)  returns 0x00 (0000ms, 1688ms total)
T0D04 002:274 JLINK_WriteReg(R13 (SP), 0x20000800)  returns 0x00 (0000ms, 1688ms total)
T0D04 002:274 JLINK_WriteReg(R14, 0x20000001)  returns 0x00 (0000ms, 1688ms total)
T0D04 002:274 JLINK_WriteReg(R15 (PC), 0x20000108)  returns 0x00 (0001ms, 1689ms total)
T0D04 002:275 JLINK_WriteReg(XPSR, 0x01000000)  returns 0x00 (0000ms, 1689ms total)
T0D04 002:275 JLINK_WriteReg(MSP, 0x20000800)  returns 0x00 (0000ms, 1689ms total)
T0D04 002:275 JLINK_WriteReg(PSP, 0x20000800)  returns 0x00 (0000ms, 1689ms total)
T0D04 002:275 JLINK_WriteReg(CFBP, 0x00000000)  returns 0x00 (0000ms, 1689ms total)
T0D04 002:275 JLINK_SetBPEx(Addr = 0x20000000, Type = 0xFFFFFFF2)  returns 0x0000000E (0000ms, 1689ms total)
T0D04 002:275 JLINK_Go() -- CPU_ReadMem(4 bytes @ 0xE0001000) (0003ms, 1692ms total)
T0D04 002:278 JLINK_IsHalted() -- CPU_ReadMem(2 bytes @ 0x20000000)  returns TRUE (0004ms, 1696ms total)
T0D04 002:282 JLINK_ReadReg(R15 (PC))  returns 0x20000000 (0001ms, 1693ms total)
T0D04 002:283 JLINK_ClrBPEx(BPHandle = 0x0000000E)  returns 0x00 (0000ms, 1693ms total)
T0D04 002:283 JLINK_ReadReg(R0)  returns 0x00000001 (0000ms, 1693ms total)
T0D04 002:283 JLINK_WriteReg(R0, 0x08003600)  returns 0x00 (0000ms, 1693ms total)
T0D04 002:283 JLINK_WriteReg(R1, 0x00000100)  returns 0x00 (0000ms, 1693ms total)
T0D04 002:283 JLINK_WriteReg(R2, 0x00000000)  returns 0x00 (0000ms, 1693ms total)
T0D04 002:283 JLINK_WriteReg(R3, 0x00000000)  returns 0x00 (0000ms, 1693ms total)
T0D04 002:283 JLINK_WriteReg(R4, 0x00000000)  returns 0x00 (0000ms, 1693ms total)
T0D04 002:283 JLINK_WriteReg(R5, 0x00000000)  returns 0x00 (0000ms, 1693ms total)
T0D04 002:283 JLINK_WriteReg(R6, 0x00000000)  returns 0x00 (0000ms, 1693ms total)
T0D04 002:283 JLINK_WriteReg(R7, 0x00000000)  returns 0x00 (0000ms, 1693ms total)
T0D04 002:283 JLINK_WriteReg(R8, 0x00000000)  returns 0x00 (0000ms, 1693ms total)
T0D04 002:283 JLINK_WriteReg(R9, 0x2000024C)  returns 0x00 (0000ms, 1693ms total)
T0D04 002:283 JLINK_WriteReg(R10, 0x00000000)  returns 0x00 (0000ms, 1693ms total)
T0D04 002:283 JLINK_WriteReg(R11, 0x00000000)  returns 0x00 (0000ms, 1693ms total)
T0D04 002:283 JLINK_WriteReg(R12, 0x00000000)  returns 0x00 (0000ms, 1693ms total)
T0D04 002:283 JLINK_WriteReg(R13 (SP), 0x20000800)  returns 0x00 (0000ms, 1693ms total)
T0D04 002:283 JLINK_WriteReg(R14, 0x20000001)  returns 0x00 (0000ms, 1693ms total)
T0D04 002:283 JLINK_WriteReg(R15 (PC), 0x200000AE)  returns 0x00 (0000ms, 1693ms total)
T0D04 002:283 JLINK_WriteReg(XPSR, 0x01000000)  returns 0x00 (0001ms, 1694ms total)
T0D04 002:284 JLINK_WriteReg(MSP, 0x20000800)  returns 0x00 (0000ms, 1694ms total)
T0D04 002:284 JLINK_WriteReg(PSP, 0x20000800)  returns 0x00 (0000ms, 1694ms total)
T0D04 002:284 JLINK_WriteReg(CFBP, 0x00000000)  returns 0x00 (0000ms, 1694ms total)
T0D04 002:284 JLINK_SetBPEx(Addr = 0x20000000, Type = 0xFFFFFFF2)  returns 0x0000000F (0000ms, 1694ms total)
T0D04 002:284 JLINK_Go() -- CPU_ReadMem(4 bytes @ 0xE0001000) (0003ms, 1697ms total)
T0D04 002:287 JLINK_IsHalted()  returns FALSE (0001ms, 1698ms total)
T0D04 002:297 JLINK_IsHalted() -- CPU_ReadMem(2 bytes @ 0x20000000)  returns TRUE (0004ms, 1701ms total)
T0D04 002:301 JLINK_ReadReg(R15 (PC))  returns 0x20000000 (0000ms, 1697ms total)
T0D04 002:301 JLINK_ClrBPEx(BPHandle = 0x0000000F)  returns 0x00 (0000ms, 1697ms total)
T0D04 002:301 JLINK_ReadReg(R0)  returns 0x00000000 (0001ms, 1698ms total)
T0D04 002:302 JLINK_WriteReg(R0, 0x08003700)  returns 0x00 (0000ms, 1698ms total)
T0D04 002:302 JLINK_WriteReg(R1, 0x00000100)  returns 0x00 (0000ms, 1698ms total)
T0D04 002:302 JLINK_WriteReg(R2, 0x00000000)  returns 0x00 (0000ms, 1698ms total)
T0D04 002:302 JLINK_WriteReg(R3, 0x00000000)  returns 0x00 (0000ms, 1698ms total)
T0D04 002:302 JLINK_WriteReg(R4, 0x00000000)  returns 0x00 (0000ms, 1698ms total)
T0D04 002:302 JLINK_WriteReg(R5, 0x00000000)  returns 0x00 (0000ms, 1698ms total)
T0D04 002:302 JLINK_WriteReg(R6, 0x00000000)  returns 0x00 (0000ms, 1698ms total)
T0D04 002:302 JLINK_WriteReg(R7, 0x00000000)  returns 0x00 (0001ms, 1699ms total)
T0D04 002:303 JLINK_WriteReg(R8, 0x00000000)  returns 0x00 (0000ms, 1699ms total)
T0D04 002:303 JLINK_WriteReg(R9, 0x2000024C)  returns 0x00 (0000ms, 1699ms total)
T0D04 002:303 JLINK_WriteReg(R10, 0x00000000)  returns 0x00 (0000ms, 1699ms total)
T0D04 002:303 JLINK_WriteReg(R11, 0x00000000)  returns 0x00 (0000ms, 1699ms total)
